02 03 00 00 00 01 84 39    烟感查询


02 03 02 00 01 3D 84     烟感报警返回值

02 03 00 00 00 02 C4 38

/----------------以下为控制器指令--------------------------/

01 05 00 10 FF 00 8D FF	   DO1开

01 05 00 10 00 00 CC 0F    DO1关

01 05 00 11 FF 00 DC 3F    DO2开

01 05 00 11 00 00 9D CF    DO2关

01 05 00 12 FF 00 2C 3F    DO3开

01 05 00 12 00 00 6D CF    DO3关

01 05 00 13 FF 00 7D FF    DO4开

01 05 00 13 00 00 3C 0F    DO4关

01 05 00 14 FF 00 CC 3E    DO5开

01 05 00 14 00 00 8D CE    DO5关

01 05 00 15 FF 00 9D FE    DO6开

01 05 00 15 00 00 DC 0E    DO6关

01 05 00 16 FF 00 6D FE    DO7开

01 05 00 16 00 00 2C 0E    DO7关

01 05 00 17 FF 00 3C 3E    DO8开

01 05 00 17 00 00 7D CE    DO8关

01 01 00 11 00 00 6C 0F

01 05 00 01 FF 00 DD FA   写一个线圈01 开
01 05 00 01 00 00 9C 0A   写一个线圈01 关
01 05 00 00 ff 00 8C 3A   写一个线圈00 开



01 01 00 00 00 08 3d cc   读线圈的8位

01 03 00 00 00 01 84 0a   读保持寄存器指令 
01 06 00 00 00 33 C9 DF   写保持寄存器指令 


01 10 04 00 00 02 04 aa aa bb bb f2 14 写多个寄存器指令16

01 03 05 03 00 01 74 c6   //读取当前工作模式
01 06 05 03 00 01 B8 C6   //主动上传模式
01 06 05 03 00 00 79 06   //被动读取

温湿度传感器 地址40（10进制），数据首地址0，数据个数为2
01 03 07 01 28 00 B9 00 00 00 47 60 